
T291C 000:545 SEGGER J-Link V4.90 Log File (0001ms, 0292ms total)
T291C 000:545 DLL Compiled: Jul 28 2014 10:35:20 (0001ms, 0292ms total)
T291C 000:545 Logging started @ 2017-10-18 14:34 (0001ms, 0292ms total)
T291C 000:546 JLINK_SetWarnOutHandler(...) (0000ms, 0292ms total)
T291C 000:546 JLINK_OpenEx(...)
Firmware: J-Link ARM V8 compiled Nov 28 2014 13:44:46
Hardware: V8.00
S/N: 58001139
Feature(s): RDI,FlashDL,FlashBP,JFlash  returns O.K. (0288ms, 0580ms total)
T291C 000:834 JLINK_SetErrorOutHandler(...) (0000ms, 0580ms total)
T291C 000:834 JLINK_ExecCommand("ProjectFile = "E:\Git_project_all\stm32f429bit6_LCD\实验14 LTDC LCD（RGB屏）实验\USER\JLinkSettings.ini"", ...)Device "UNSPECIFIED" selected (0 KB flash, 0 KB RAM).  returns 0x00 (0012ms, 0592ms total)
T291C 000:873 JLINK_ExecCommand("Device = STM32F429BITx", ...)Device "UNSPECIFIED" selected (0 KB flash, 0 KB RAM).  returns 0x00 (0015ms, 0607ms total)
T291C 000:888 JLINK_ExecCommand("DisableConnectionTimeout", ...)  returns 0x01 (0000ms, 0607ms total)
T291C 000:888 JLINK_GetHardwareVersion()  returns 0x13880 (0000ms, 0607ms total)
T291C 000:888 JLINK_GetDLLVersion()  returns 49000 (0000ms, 0607ms total)
T291C 000:888 JLINK_GetFirmwareString(...) (0000ms, 0607ms total)
T291C 000:908 JLINK_GetDLLVersion()  returns 49000 (0000ms, 0607ms total)
T291C 000:908 JLINK_GetCompileDateTime() (0000ms, 0607ms total)
T291C 000:913 JLINK_GetFirmwareString(...) (0000ms, 0607ms total)
T291C 000:920 JLINK_GetHardwareVersion()  returns 0x13880 (0001ms, 0608ms total)
T291C 000:938 JLINK_TIF_Select(JLINKARM_TIF_SWD)  returns 0x00 (0004ms, 0612ms total)
T291C 000:942 JLINK_SetSpeed(5000) (0001ms, 0613ms total)
T291C 000:943 JLINK_GetId() >0x108 TIF>Found SWD-DP with ID 0x2BA01477 >0x0D TIF> >0x21 TIF> >0x0D TIF> >0x28 TIF> >0x0D TIF> >0x28 TIF> >0x0D TIF> >0x21 TIF> >0x0D TIF> >0x28 TIF> >0x0D TIF> >0x21 TIF> >0x0D TIF> >0x21 TIF> >0x0D TIF> >0x21 TIF> >0x0D TIF> >0x21 TIF> >0x0D TIF> >0x28 TIF> >0x0D TIF> >0x28 TIF> >0x0D TIF> >0x21 TIF> >0x0D TIF> >0x28 TIF> >0x0D TIF> >0x28 TIF> >0x0D TIF> >0x28 TIF> >0x0D TIF> >0x21 TIF> >0x0D TIF> >0x21 TIF> >0x0D TIF> >0x28 TIF> >0x0D TIF> >0x21 TIF> >0x0D TIF>
 >0x21 TIF>Found Cortex-M4 r0p1, Little endian. -- CPU_WriteMem(4 bytes @ 0xE0002000) -- CPU_ReadMem(4 bytes @ 0xE000EDF0) -- CPU_ReadMem(4 bytes @ 0xE0002000)FPUnit: 6 code (BP) slots and 2 literal slots -- CPU_ReadMem(4 bytes @ 0xE000EDFC) -- CPU_ReadMem(4 bytes @ 0xE0001000) -- CPU_WriteMem(4 bytes @ 0xE0001000) -- CPU_ReadMem(4 bytes @ 0xE00FF010)TPIU fitted. -- CPU_ReadMem(4 bytes @ 0xE00FF014)ETM fitted. -- CPU_ReadMem(4 bytes @ 0xE00FF018) >0x0D TIF> >0x21 TIF>  returns 0x2BA01477
 (0084ms, 0697ms total)
T291C 001:027 JLINK_GetDLLVersion()  returns 49000 (0000ms, 0697ms total)
T291C 001:027 JLINK_CORE_GetFound()  returns 0xE0000FF (0001ms, 0698ms total)
T291C 001:033 JLINK_GetDebugInfo(0x100) -- Value=0xE00FF003  returns 0x00 (0000ms, 0698ms total)
T291C 001:033 JLINK_GetDebugInfo(0x101)  returns 0xFFFFFFFF (0000ms, 0698ms total)
T291C 001:033 JLINK_ReadMem (0xE0041FF0, 0x0010 Bytes, ...) -- CPU is running -- CPU_ReadMem(16 bytes @ 0xE0041FF0) - Data: 0D 00 00 00 90 00 00 00 05 00 00 00 B1 00 00 00  returns 0x00 (0002ms, 0700ms total)
T291C 001:035 JLINK_GetDebugInfo(0x102)  returns 0xFFFFFFFF (0000ms, 0700ms total)
T291C 001:035 JLINK_GetDebugInfo(0x103)  returns 0xFFFFFFFF (0000ms, 0700ms total)
T291C 001:035 JLINK_ReadMem (0xE0040FF0, 0x0010 Bytes, ...) -- CPU is running -- CPU_ReadMem(16 bytes @ 0xE0040FF0) - Data: 0D 00 00 00 90 00 00 00 05 00 00 00 B1 00 00 00  returns 0x00 (0001ms, 0701ms total)
T291C 001:036 JLINK_GetDebugInfo(0x104)  returns 0xFFFFFFFF (0000ms, 0701ms total)
T291C 001:036 JLINK_GetDebugInfo(0x105)  returns 0xFFFFFFFF (0000ms, 0701ms total)
T291C 001:036 JLINK_GetDebugInfo(0x106)  returns 0xFFFFFFFF (0000ms, 0701ms total)
T291C 001:036 JLINK_GetDebugInfo(0x107)  returns 0xFFFFFFFF (0000ms, 0701ms total)
T291C 001:036 JLINK_GetDebugInfo(0x10C)  returns 0xFFFFFFFF (0000ms, 0701ms total)
T291C 001:036 JLINK_ReadMemU32(0xE000EF40, 0x0001 Items, ...) -- CPU is running -- CPU_ReadMem(4 bytes @ 0xE000EF40) - Data: 21 00 11 10  returns 0x01 (0001ms, 0702ms total)
T291C 001:037 JLINK_ReadMemU32(0xE000EF44, 0x0001 Items, ...) -- CPU is running -- CPU_ReadMem(4 bytes @ 0xE000EF44) - Data: 11 00 00 11  returns 0x01 (0001ms, 0703ms total)
T291C 001:038 JLINK_ReadMemU32(0xE000ED00, 0x0001 Items, ...) -- CPU is running -- CPU_ReadMem(4 bytes @ 0xE000ED00) - Data: 41 C2 0F 41  returns 0x01 (0001ms, 0704ms total)
T291C 001:039 JLINK_SetResetType(JLINKARM_RESET_TYPE_NORMAL)  returns JLINKARM_RESET_TYPE_NORMAL (0000ms, 0704ms total)
T291C 001:039 JLINK_Reset() -- CPU is running -- CPU_WriteMem(4 bytes @ 0xE000EDF0) -- CPU is running -- CPU_WriteMem(4 bytes @ 0xE000EDFC) >0x35 TIF> -- CPU is running -- CPU_WriteMem(4 bytes @ 0xE000ED0C) -- CPU is running -- CPU_ReadMem(4 bytes @ 0xE000EDF0) -- CPU is running -- CPU_ReadMem(4 bytes @ 0xE000EDF0) -- CPU is running -- CPU_WriteMem(4 bytes @ 0xE000EDF0) -- CPU is running -- CPU_WriteMem(4 bytes @ 0xE000EDFC) -- CPU is running -- CPU_ReadMem(4 bytes @ 0xE000EDF0)
 -- CPU_WriteMem(4 bytes @ 0xE0002000) -- CPU_ReadMem(4 bytes @ 0xE000EDFC) -- CPU_ReadMem(4 bytes @ 0xE0001000) (0023ms, 0727ms total)
T291C 001:062 JLINK_Halt()  returns 0x00 (0000ms, 0727ms total)
T291C 001:062 JLINK_IsHalted()  returns TRUE (0000ms, 0727ms total)
T291C 001:062 JLINK_ReadMemU32(0xE000EDF0, 0x0001 Items, ...) -- CPU_ReadMem(4 bytes @ 0xE000EDF0) - Data: 03 00 03 00  returns 0x01 (0001ms, 0728ms total)
T291C 001:063 JLINK_WriteU32(0xE000EDF0, 0xA05F0003) -- CPU_WriteMem(4 bytes @ 0xE000EDF0)  returns 0x00 (0001ms, 0729ms total)
T291C 001:064 JLINK_WriteU32(0xE000EDFC, 0x01000000) -- CPU_WriteMem(4 bytes @ 0xE000EDFC)  returns 0x00 (0001ms, 0730ms total)
T291C 001:082 JLINK_GetHWStatus(...)  returns 0x00 (0001ms, 0731ms total)
T291C 001:096 JLINK_GetNumBPUnits(Type = 0xFFFFFF00)  returns 0x06 (0000ms, 0731ms total)
T291C 001:096 JLINK_GetNumBPUnits(Type = 0xF0)  returns 0x2000 (0000ms, 0731ms total)
T291C 001:096 JLINK_GetNumWPUnits()  returns 0x04 (0000ms, 0731ms total)
T291C 001:109 JLINK_GetSpeed()  returns 0xFA0 (0000ms, 0731ms total)
T291C 001:122 JLINK_ReadMemU32(0xE000E004, 0x0001 Items, ...) -- CPU_ReadMem(4 bytes @ 0xE000E004) - Data: 02 00 00 00  returns 0x01 (0001ms, 0732ms total)
T291C 001:123 JLINK_ReadMemU32(0xE000E004, 0x0001 Items, ...) -- CPU_ReadMem(4 bytes @ 0xE000E004) - Data: 02 00 00 00  returns 0x01 (0001ms, 0733ms total)
T291C 001:124 JLINK_WriteMem(0xE0001000, 0x001C Bytes, ...) - Data: 01 00 00 00 00 00 00 00 00 00 00 00 00 00 00 00 ... -- CPU_WriteMem(28 bytes @ 0xE0001000)  returns 0x1C (0001ms, 0734ms total)
T291C 001:125 JLINK_ReadMem (0xE0001000, 0x001C Bytes, ...) -- CPU_ReadMem(28 bytes @ 0xE0001000) - Data: 01 00 00 40 00 00 00 00 00 00 00 00 00 00 00 00 ...  returns 0x00 (0001ms, 0735ms total)
T291C 001:126 JLINK_Halt()  returns 0x00 (0000ms, 0735ms total)
T291C 001:126 JLINK_IsHalted()  returns TRUE (0000ms, 0735ms total)
T291C 001:130 JLINK_WriteMem(0x20000000, 0x0198 Bytes, ...) - Data: 00 BE 0A E0 0D 78 2D 06 68 40 08 24 40 00 00 D3 ... -- CPU_WriteMem(408 bytes @ 0x20000000)  returns 0x198 (0003ms, 0738ms total)
T291C 001:133 JLINK_WriteReg(R0, 0x08000000)  returns 0x00 (0000ms, 0738ms total)
T291C 001:133 JLINK_WriteReg(R1, 0x00B71B00)  returns 0x00 (0000ms, 0738ms total)
T291C 001:133 JLINK_WriteReg(R2, 0x00000001)  returns 0x00 (0000ms, 0738ms total)
T291C 001:133 JLINK_WriteReg(R3, 0x00000000)  returns 0x00 (0000ms, 0738ms total)
T291C 001:133 JLINK_WriteReg(R4, 0x00000000)  returns 0x00 (0000ms, 0738ms total)
T291C 001:133 JLINK_WriteReg(R5, 0x00000000)  returns 0x00 (0000ms, 0738ms total)
T291C 001:133 JLINK_WriteReg(R6, 0x00000000)  returns 0x00 (0000ms, 0738ms total)
T291C 001:133 JLINK_WriteReg(R7, 0x00000000)  returns 0x00 (0000ms, 0738ms total)
T291C 001:133 JLINK_WriteReg(R8, 0x00000000)  returns 0x00 (0000ms, 0738ms total)
T291C 001:133 JLINK_WriteReg(R9, 0x20000194)  returns 0x00 (0000ms, 0738ms total)
T291C 001:133 JLINK_WriteReg(R10, 0x00000000)  returns 0x00 (0000ms, 0738ms total)
T291C 001:134 JLINK_WriteReg(R11, 0x00000000)  returns 0x00 (0000ms, 0739ms total)
T291C 001:134 JLINK_WriteReg(R12, 0x00000000)  returns 0x00 (0000ms, 0739ms total)
T291C 001:134 JLINK_WriteReg(R13 (SP), 0x20001000)  returns 0x00 (0000ms, 0739ms total)
T291C 001:134 JLINK_WriteReg(R14, 0x20000001)  returns 0x00 (0000ms, 0739ms total)
T291C 001:134 JLINK_WriteReg(R15 (PC), 0x2000005E)  returns 0x00 (0000ms, 0739ms total)
T291C 001:134 JLINK_WriteReg(XPSR, 0x01000000)  returns 0x00 (0000ms, 0739ms total)
T291C 001:134 JLINK_WriteReg(MSP, 0x20001000)  returns 0x00 (0000ms, 0739ms total)
T291C 001:134 JLINK_WriteReg(PSP, 0x20001000)  returns 0x00 (0000ms, 0739ms total)
T291C 001:134 JLINK_WriteReg(CFBP, 0x00000000)  returns 0x00 (0000ms, 0739ms total)
T291C 001:134 JLINK_SetBPEx(Addr = 0x20000000, Type = 0xFFFFFFF2) -- CPU_ReadMem(4 bytes @ 0x20000000) -- CPU_WriteMem(4 bytes @ 0x20000000) -- CPU_ReadMem(4 bytes @ 0x20000000) -- CPU_WriteMem(4 bytes @ 0x20000000) -- CPU_ReadMem(2 bytes @ 0x20000000)  returns 0x00000001 (0004ms, 0743ms total)
T291C 001:138 JLINK_Go() -- CPU_WriteMem(2 bytes @ 0x20000000) -- CPU_WriteMem(4 bytes @ 0xE0002008) -- CPU_WriteMem(4 bytes @ 0xE000200C) -- CPU_WriteMem(4 bytes @ 0xE0002010) -- CPU_WriteMem(4 bytes @ 0xE0002014) -- CPU_WriteMem(4 bytes @ 0xE0002018) -- CPU_WriteMem(4 bytes @ 0xE000201C) -- CPU_WriteMem(4 bytes @ 0xE0001004) (0010ms, 0753ms total)
T291C 001:148 JLINK_IsHalted() -- CPU_ReadMem(2 bytes @ 0x20000000)  returns TRUE (0004ms, 0757ms total)
T291C 001:152 JLINK_ReadReg(R15 (PC))  returns 0x20000000 (0000ms, 0753ms total)
T291C 001:152 JLINK_ClrBPEx(BPHandle = 0x00000001)  returns 0x00 (0000ms, 0753ms total)
T291C 001:152 JLINK_ReadReg(R0)  returns 0x00000000 (0000ms, 0753ms total)
T291C 001:153 JLINK_WriteReg(R0, 0x08000000)  returns 0x00 (0000ms, 0753ms total)
T291C 001:153 JLINK_WriteReg(R1, 0x00004000)  returns 0x00 (0000ms, 0753ms total)
T291C 001:153 JLINK_WriteReg(R2, 0x000000FF)  returns 0x00 (0000ms, 0753ms total)
T291C 001:153 JLINK_WriteReg(R3, 0x00000000)  returns 0x00 (0000ms, 0753ms total)
T291C 001:153 JLINK_WriteReg(R4, 0x00000000)  returns 0x00 (0000ms, 0753ms total)
T291C 001:153 JLINK_WriteReg(R5, 0x00000000)  returns 0x00 (0000ms, 0753ms total)
T291C 001:153 JLINK_WriteReg(R6, 0x00000000)  returns 0x00 (0000ms, 0753ms total)
T291C 001:153 JLINK_WriteReg(R7, 0x00000000)  returns 0x00 (0000ms, 0753ms total)
T291C 001:153 JLINK_WriteReg(R8, 0x00000000)  returns 0x00 (0000ms, 0753ms total)
T291C 001:153 JLINK_WriteReg(R9, 0x20000194)  returns 0x00 (0000ms, 0753ms total)
T291C 001:153 JLINK_WriteReg(R10, 0x00000000)  returns 0x00 (0000ms, 0753ms total)
T291C 001:153 JLINK_WriteReg(R11, 0x00000000)  returns 0x00 (0000ms, 0753ms total)
T291C 001:153 JLINK_WriteReg(R12, 0x00000000)  returns 0x00 (0000ms, 0753ms total)
T291C 001:153 JLINK_WriteReg(R13 (SP), 0x20001000)  returns 0x00 (0000ms, 0753ms total)
T291C 001:153 JLINK_WriteReg(R14, 0x20000001)  returns 0x00 (0000ms, 0753ms total)
T291C 001:153 JLINK_WriteReg(R15 (PC), 0x20000020)  returns 0x00 (0000ms, 0753ms total)
T291C 001:153 JLINK_WriteReg(XPSR, 0x01000000)  returns 0x00 (0000ms, 0753ms total)
T291C 001:153 JLINK_WriteReg(MSP, 0x20001000)  returns 0x00 (0000ms, 0753ms total)
T291C 001:153 JLINK_WriteReg(PSP, 0x20001000)  returns 0x00 (0000ms, 0753ms total)
T291C 001:153 JLINK_WriteReg(CFBP, 0x00000000)  returns 0x00 (0000ms, 0753ms total)
T291C 001:153 JLINK_SetBPEx(Addr = 0x20000000, Type = 0xFFFFFFF2)  returns 0x00000002 (0000ms, 0753ms total)
T291C 001:153 JLINK_Go() (0002ms, 0755ms total)
T291C 001:155 JLINK_IsHalted() -- CPU_ReadMem(2 bytes @ 0x20000000)  returns TRUE (0004ms, 0759ms total)
T291C 001:159 JLINK_ReadReg(R15 (PC))  returns 0x20000000 (0000ms, 0755ms total)
T291C 001:159 JLINK_ClrBPEx(BPHandle = 0x00000002)  returns 0x00 (0000ms, 0755ms total)
T291C 001:159 JLINK_ReadReg(R0)  returns 0x00000001 (0000ms, 0755ms total)
T291C 001:159 JLINK_WriteReg(R0, 0x08000000)  returns 0x00 (0000ms, 0755ms total)
T291C 001:159 JLINK_WriteReg(R1, 0x00004000)  returns 0x00 (0000ms, 0755ms total)
T291C 001:159 JLINK_WriteReg(R2, 0x000000FF)  returns 0x00 (0000ms, 0755ms total)
T291C 001:159 JLINK_WriteReg(R3, 0x00000000)  returns 0x00 (0000ms, 0755ms total)
T291C 001:159 JLINK_WriteReg(R4, 0x00000000)  returns 0x00 (0000ms, 0755ms total)
T291C 001:159 JLINK_WriteReg(R5, 0x00000000)  returns 0x00 (0000ms, 0755ms total)
T291C 001:159 JLINK_WriteReg(R6, 0x00000000)  returns 0x00 (0000ms, 0755ms total)
T291C 001:159 JLINK_WriteReg(R7, 0x00000000)  returns 0x00 (0001ms, 0756ms total)
T291C 001:160 JLINK_WriteReg(R8, 0x00000000)  returns 0x00 (0000ms, 0756ms total)
T291C 001:160 JLINK_WriteReg(R9, 0x20000194)  returns 0x00 (0000ms, 0756ms total)
T291C 001:160 JLINK_WriteReg(R10, 0x00000000)  returns 0x00 (0000ms, 0756ms total)
T291C 001:160 JLINK_WriteReg(R11, 0x00000000)  returns 0x00 (0000ms, 0756ms total)
T291C 001:160 JLINK_WriteReg(R12, 0x00000000)  returns 0x00 (0000ms, 0756ms total)
T291C 001:160 JLINK_WriteReg(R13 (SP), 0x20001000)  returns 0x00 (0000ms, 0756ms total)
T291C 001:160 JLINK_WriteReg(R14, 0x20000001)  returns 0x00 (0000ms, 0756ms total)
T291C 001:160 JLINK_WriteReg(R15 (PC), 0x200000D4)  returns 0x00 (0000ms, 0756ms total)
T291C 001:160 JLINK_WriteReg(XPSR, 0x01000000)  returns 0x00 (0000ms, 0756ms total)
T291C 001:160 JLINK_WriteReg(MSP, 0x20001000)  returns 0x00 (0000ms, 0756ms total)
T291C 001:160 JLINK_WriteReg(PSP, 0x20001000)  returns 0x00 (0000ms, 0756ms total)
T291C 001:160 JLINK_WriteReg(CFBP, 0x00000000)  returns 0x00 (0000ms, 0756ms total)
T291C 001:160 JLINK_SetBPEx(Addr = 0x20000000, Type = 0xFFFFFFF2)  returns 0x00000003 (0000ms, 0756ms total)
T291C 001:160 JLINK_Go() (0002ms, 0758ms total)
T291C 001:162 JLINK_IsHalted()  returns FALSE (0001ms, 0759ms total)
T291C 001:251 JLINK_IsHalted()  returns FALSE (0001ms, 0759ms total)
T291C 001:253 JLINK_IsHalted()  returns FALSE (0001ms, 0759ms total)
T291C 001:255 JLINK_IsHalted()  returns FALSE (0001ms, 0759ms total)
T291C 001:257 JLINK_IsHalted()  returns FALSE (0001ms, 0759ms total)
T291C 001:259 JLINK_IsHalted()  returns FALSE (0001ms, 0759ms total)
T291C 001:263 JLINK_IsHalted()  returns FALSE (0001ms, 0759ms total)
T291C 001:265 JLINK_IsHalted()  returns FALSE (0001ms, 0759ms total)
T291C 001:267 JLINK_IsHalted()  returns FALSE (0001ms, 0759ms total)
T291C 001:269 JLINK_IsHalted()  returns FALSE (0001ms, 0759ms total)
T291C 001:281 JLINK_IsHalted()  returns FALSE (0001ms, 0759ms total)
T291C 001:283 JLINK_IsHalted()  returns FALSE (0001ms, 0759ms total)
T291C 001:285 JLINK_IsHalted()  returns FALSE (0001ms, 0759ms total)
T291C 001:287 JLINK_IsHalted()  returns FALSE (0001ms, 0759ms total)
T291C 001:289 JLINK_IsHalted()  returns FALSE (0001ms, 0759ms total)
T291C 001:291 JLINK_IsHalted()  returns FALSE (0001ms, 0759ms total)
T291C 001:322 JLINK_IsHalted()  returns FALSE (0001ms, 0759ms total)
T291C 001:326 JLINK_IsHalted()  returns FALSE (0001ms, 0759ms total)
T291C 001:328 JLINK_IsHalted()  returns FALSE (0001ms, 0759ms total)
T291C 001:330 JLINK_IsHalted()  returns FALSE (0001ms, 0759ms total)
T291C 001:332 JLINK_IsHalted()  returns FALSE (0000ms, 0758ms total)
T291C 001:333 JLINK_IsHalted()  returns FALSE (0001ms, 0759ms total)
T291C 001:340 JLINK_IsHalted()  returns FALSE (0001ms, 0759ms total)
T291C 001:342 JLINK_IsHalted()  returns FALSE (0001ms, 0759ms total)
T291C 001:344 JLINK_IsHalted()  returns FALSE (0001ms, 0759ms total)
T291C 001:346 JLINK_IsHalted()  returns FALSE (0001ms, 0759ms total)
T291C 001:356 JLINK_IsHalted()  returns FALSE (0001ms, 0759ms total)
T291C 001:358 JLINK_IsHalted()  returns FALSE (0001ms, 0759ms total)
T291C 001:360 JLINK_IsHalted()  returns FALSE (0001ms, 0759ms total)
T291C 001:362 JLINK_IsHalted()  returns FALSE (0001ms, 0759ms total)
T291C 001:364 JLINK_IsHalted()  returns FALSE (0001ms, 0759ms total)
T291C 001:366 JLINK_IsHalted()  returns FALSE (0001ms, 0759ms total)
T291C 001:370 JLINK_IsHalted()  returns FALSE (0001ms, 0759ms total)
T291C 001:372 JLINK_IsHalted()  returns FALSE (0001ms, 0759ms total)
T291C 001:374 JLINK_IsHalted()  returns FALSE (0001ms, 0759ms total)
T291C 001:376 JLINK_IsHalted()  returns FALSE (0001ms, 0759ms total)
T291C 001:378 JLINK_IsHalted()  returns FALSE (0001ms, 0759ms total)
T291C 001:380 JLINK_IsHalted()  returns FALSE (0001ms, 0759ms total)
T291C 001:382 JLINK_IsHalted()  returns FALSE (0001ms, 0759ms total)
T291C 001:384 JLINK_IsHalted()  returns FALSE (0001ms, 0759ms total)
T291C 001:389 JLINK_IsHalted()  returns FALSE (0001ms, 0759ms total)
T291C 001:391 JLINK_IsHalted()  returns FALSE (0001ms, 0759ms total)
T291C 001:393 JLINK_IsHalted()  returns FALSE (0001ms, 0759ms total)
T291C 001:395 JLINK_IsHalted()  returns FALSE (0001ms, 0759ms total)
T291C 001:431 JLINK_IsHalted()  returns FALSE (0001ms, 0759ms total)
T291C 001:433 JLINK_IsHalted()  returns FALSE (0001ms, 0759ms total)
T291C 001:435 JLINK_IsHalted()  returns FALSE (0001ms, 0759ms total)
T291C 001:437 JLINK_IsHalted()  returns FALSE (0001ms, 0759ms total)
T291C 001:439 JLINK_IsHalted()  returns FALSE (0001ms, 0759ms total)
T291C 001:441 JLINK_IsHalted()  returns FALSE (0001ms, 0759ms total)
T291C 001:443 JLINK_IsHalted()  returns FALSE (0001ms, 0759ms total)
T291C 001:445 JLINK_IsHalted()  returns FALSE (0001ms, 0759ms total)
T291C 001:447 JLINK_IsHalted()  returns FALSE (0001ms, 0759ms total)
T291C 001:451 JLINK_IsHalted()  returns FALSE (0001ms, 0759ms total)
T291C 001:453 JLINK_IsHalted()  returns FALSE (0001ms, 0759ms total)
T291C 001:455 JLINK_IsHalted()  returns FALSE (0001ms, 0759ms total)
T291C 001:457 JLINK_IsHalted()  returns FALSE (0001ms, 0759ms total)
T291C 001:459 JLINK_IsHalted()  returns FALSE (0001ms, 0759ms total)
T291C 001:463 JLINK_IsHalted()  returns FALSE (0001ms, 0759ms total)
T291C 001:465 JLINK_IsHalted()  returns FALSE (0001ms, 0759ms total)
T291C 001:467 JLINK_IsHalted()  returns FALSE (0001ms, 0759ms total)
T291C 001:469 JLINK_IsHalted()  returns FALSE (0001ms, 0759ms total)
T291C 001:471 JLINK_IsHalted()  returns FALSE (0001ms, 0759ms total)
T291C 001:473 JLINK_IsHalted()  returns FALSE (0001ms, 0759ms total)
T291C 001:475 JLINK_IsHalted()  returns FALSE (0001ms, 0759ms total)
T291C 001:478 JLINK_IsHalted()  returns FALSE (0001ms, 0759ms total)
T291C 001:480 JLINK_IsHalted()  returns FALSE (0001ms, 0759ms total)
T291C 001:482 JLINK_IsHalted()  returns FALSE (0001ms, 0759ms total)
T291C 001:484 JLINK_IsHalted()  returns FALSE (0001ms, 0759ms total)
T291C 001:486 JLINK_IsHalted()  returns FALSE (0001ms, 0759ms total)
T291C 001:488 JLINK_IsHalted()  returns FALSE (0001ms, 0759ms total)
T291C 001:490 JLINK_IsHalted()  returns FALSE (0001ms, 0759ms total)
T291C 001:495 JLINK_IsHalted()  returns FALSE (0001ms, 0759ms total)
T291C 001:497 JLINK_IsHalted()  returns FALSE (0001ms, 0759ms total)
T291C 001:499 JLINK_IsHalted()  returns FALSE (0001ms, 0759ms total)
T291C 001:501 JLINK_IsHalted()  returns FALSE (0001ms, 0759ms total)
T291C 001:503 JLINK_IsHalted()  returns FALSE (0001ms, 0759ms total)
T291C 001:533 JLINK_IsHalted() -- CPU_ReadMem(2 bytes @ 0x20000000)  returns TRUE (0004ms, 0762ms total)
T291C 001:537 JLINK_ReadReg(R15 (PC))  returns 0x20000000 (0000ms, 0758ms total)
T291C 001:537 JLINK_ClrBPEx(BPHandle = 0x00000003)  returns 0x00 (0000ms, 0758ms total)
T291C 001:537 JLINK_ReadReg(R0)  returns 0x00000000 (0000ms, 0758ms total)
T291C 001:538 JLINK_WriteReg(R0, 0x08004000)  returns 0x00 (0000ms, 0758ms total)
T291C 001:538 JLINK_WriteReg(R1, 0x00004000)  returns 0x00 (0000ms, 0758ms total)
T291C 001:538 JLINK_WriteReg(R2, 0x000000FF)  returns 0x00 (0000ms, 0758ms total)
T291C 001:538 JLINK_WriteReg(R3, 0x00000000)  returns 0x00 (0000ms, 0758ms total)
T291C 001:538 JLINK_WriteReg(R4, 0x00000000)  returns 0x00 (0000ms, 0758ms total)
T291C 001:538 JLINK_WriteReg(R5, 0x00000000)  returns 0x00 (0000ms, 0758ms total)
T291C 001:538 JLINK_WriteReg(R6, 0x00000000)  returns 0x00 (0000ms, 0758ms total)
T291C 001:538 JLINK_WriteReg(R7, 0x00000000)  returns 0x00 (0000ms, 0758ms total)
T291C 001:538 JLINK_WriteReg(R8, 0x00000000)  returns 0x00 (0000ms, 0758ms total)
T291C 001:538 JLINK_WriteReg(R9, 0x20000194)  returns 0x00 (0000ms, 0758ms total)
T291C 001:538 JLINK_WriteReg(R10, 0x00000000)  returns 0x00 (0000ms, 0758ms total)
T291C 001:538 JLINK_WriteReg(R11, 0x00000000)  returns 0x00 (0000ms, 0758ms total)
T291C 001:538 JLINK_WriteReg(R12, 0x00000000)  returns 0x00 (0000ms, 0758ms total)
T291C 001:538 JLINK_WriteReg(R13 (SP), 0x20001000)  returns 0x00 (0000ms, 0758ms total)
T291C 001:538 JLINK_WriteReg(R14, 0x20000001)  returns 0x00 (0000ms, 0758ms total)
T291C 001:538 JLINK_WriteReg(R15 (PC), 0x20000020)  returns 0x00 (0000ms, 0758ms total)
T291C 001:538 JLINK_WriteReg(XPSR, 0x01000000)  returns 0x00 (0000ms, 0758ms total)
T291C 001:538 JLINK_WriteReg(MSP, 0x20001000)  returns 0x00 (0000ms, 0758ms total)
T291C 001:538 JLINK_WriteReg(PSP, 0x20001000)  returns 0x00 (0000ms, 0758ms total)
T291C 001:538 JLINK_WriteReg(CFBP, 0x00000000)  returns 0x00 (0000ms, 0758ms total)
T291C 001:538 JLINK_SetBPEx(Addr = 0x20000000, Type = 0xFFFFFFF2)  returns 0x00000004 (0000ms, 0758ms total)
T291C 001:538 JLINK_Go() (0002ms, 0760ms total)
T291C 001:540 JLINK_IsHalted() -- CPU_ReadMem(2 bytes @ 0x20000000)  returns TRUE (0004ms, 0764ms total)
T291C 001:544 JLINK_ReadReg(R15 (PC))  returns 0x20000000 (0000ms, 0760ms total)
T291C 001:544 JLINK_ClrBPEx(BPHandle = 0x00000004)  returns 0x00 (0000ms, 0760ms total)
T291C 001:544 JLINK_ReadReg(R0)  returns 0x00000001 (0000ms, 0760ms total)
T291C 001:544 JLINK_WriteReg(R0, 0x08004000)  returns 0x00 (0000ms, 0760ms total)
T291C 001:544 JLINK_WriteReg(R1, 0x00004000)  returns 0x00 (0000ms, 0760ms total)
T291C 001:544 JLINK_WriteReg(R2, 0x000000FF)  returns 0x00 (0000ms, 0760ms total)
T291C 001:544 JLINK_WriteReg(R3, 0x00000000)  returns 0x00 (0000ms, 0760ms total)
T291C 001:544 JLINK_WriteReg(R4, 0x00000000)  returns 0x00 (0000ms, 0760ms total)
T291C 001:544 JLINK_WriteReg(R5, 0x00000000)  returns 0x00 (0000ms, 0760ms total)
T291C 001:544 JLINK_WriteReg(R6, 0x00000000)  returns 0x00 (0000ms, 0760ms total)
T291C 001:544 JLINK_WriteReg(R7, 0x00000000)  returns 0x00 (0000ms, 0760ms total)
T291C 001:544 JLINK_WriteReg(R8, 0x00000000)  returns 0x00 (0000ms, 0760ms total)
T291C 001:544 JLINK_WriteReg(R9, 0x20000194)  returns 0x00 (0000ms, 0760ms total)
T291C 001:544 JLINK_WriteReg(R10, 0x00000000)  returns 0x00 (0000ms, 0760ms total)
T291C 001:545 JLINK_WriteReg(R11, 0x00000000)  returns 0x00 (0000ms, 0760ms total)
T291C 001:545 JLINK_WriteReg(R12, 0x00000000)  returns 0x00 (0000ms, 0760ms total)
T291C 001:545 JLINK_WriteReg(R13 (SP), 0x20001000)  returns 0x00 (0000ms, 0760ms total)
T291C 001:545 JLINK_WriteReg(R14, 0x20000001)  returns 0x00 (0000ms, 0760ms total)
T291C 001:545 JLINK_WriteReg(R15 (PC), 0x200000D4)  returns 0x00 (0000ms, 0760ms total)
T291C 001:545 JLINK_WriteReg(XPSR, 0x01000000)  returns 0x00 (0000ms, 0760ms total)
T291C 001:545 JLINK_WriteReg(MSP, 0x20001000)  returns 0x00 (0000ms, 0760ms total)
T291C 001:545 JLINK_WriteReg(PSP, 0x20001000)  returns 0x00 (0000ms, 0760ms total)
T291C 001:545 JLINK_WriteReg(CFBP, 0x00000000)  returns 0x00 (0000ms, 0760ms total)
T291C 001:545 JLINK_SetBPEx(Addr = 0x20000000, Type = 0xFFFFFFF2)  returns 0x00000005 (0000ms, 0760ms total)
T291C 001:545 JLINK_Go() (0002ms, 0762ms total)
T291C 001:547 JLINK_IsHalted()  returns FALSE (0001ms, 0763ms total)
T291C 001:551 JLINK_IsHalted()  returns FALSE (0002ms, 0764ms total)
T291C 001:557 JLINK_IsHalted()  returns FALSE (0001ms, 0763ms total)
T291C 001:559 JLINK_IsHalted()  returns FALSE (0001ms, 0763ms total)
T291C 001:561 JLINK_IsHalted()  returns FALSE (0001ms, 0763ms total)
T291C 001:563 JLINK_IsHalted()  returns FALSE (0001ms, 0763ms total)
T291C 001:565 JLINK_IsHalted()  returns FALSE (0001ms, 0763ms total)
T291C 001:567 JLINK_IsHalted()  returns FALSE (0001ms, 0763ms total)
T291C 001:569 JLINK_IsHalted()  returns FALSE (0001ms, 0763ms total)
T291C 001:571 JLINK_IsHalted()  returns FALSE (0001ms, 0763ms total)
T291C 001:578 JLINK_IsHalted()  returns FALSE (0001ms, 0763ms total)
T291C 001:580 JLINK_IsHalted()  returns FALSE (0001ms, 0763ms total)
T291C 001:582 JLINK_IsHalted()  returns FALSE (0001ms, 0763ms total)
T291C 001:586 JLINK_IsHalted()  returns FALSE (0001ms, 0763ms total)
T291C 001:588 JLINK_IsHalted()  returns FALSE (0001ms, 0763ms total)
T291C 001:590 JLINK_IsHalted()  returns FALSE (0001ms, 0763ms total)
T291C 001:592 JLINK_IsHalted()  returns FALSE (0001ms, 0763ms total)
T291C 001:594 JLINK_IsHalted()  returns FALSE (0001ms, 0763ms total)
T291C 001:596 JLINK_IsHalted()  returns FALSE (0001ms, 0763ms total)
T291C 001:598 JLINK_IsHalted()  returns FALSE (0001ms, 0763ms total)
T291C 001:600 JLINK_IsHalted()  returns FALSE (0003ms, 0765ms total)
T291C 001:609 JLINK_IsHalted()  returns FALSE (0001ms, 0763ms total)
T291C 001:611 JLINK_IsHalted()  returns FALSE (0001ms, 0763ms total)
T291C 001:613 JLINK_IsHalted()  returns FALSE (0001ms, 0763ms total)
T291C 001:615 JLINK_IsHalted()  returns FALSE (0003ms, 0765ms total)
T291C 001:644 JLINK_IsHalted()  returns FALSE (0001ms, 0763ms total)
T291C 001:648 JLINK_IsHalted()  returns FALSE (0001ms, 0763ms total)
T291C 001:650 JLINK_IsHalted()  returns FALSE (0001ms, 0763ms total)
T291C 001:652 JLINK_IsHalted()  returns FALSE (0001ms, 0763ms total)
T291C 001:654 JLINK_IsHalted()  returns FALSE (0001ms, 0763ms total)
T291C 001:656 JLINK_IsHalted()  returns FALSE (0001ms, 0763ms total)
T291C 001:658 JLINK_IsHalted()  returns FALSE (0001ms, 0763ms total)
T291C 001:660 JLINK_IsHalted()  returns FALSE (0004ms, 0766ms total)
T291C 001:667 JLINK_IsHalted()  returns FALSE (0001ms, 0763ms total)
T291C 001:669 JLINK_IsHalted()  returns FALSE (0001ms, 0763ms total)
T291C 001:671 JLINK_IsHalted()  returns FALSE (0001ms, 0763ms total)
T291C 001:673 JLINK_IsHalted()  returns FALSE (0001ms, 0763ms total)
T291C 001:675 JLINK_IsHalted()  returns FALSE (0004ms, 0766ms total)
T291C 001:683 JLINK_IsHalted()  returns FALSE (0001ms, 0763ms total)
T291C 001:685 JLINK_IsHalted()  returns FALSE (0001ms, 0763ms total)
T291C 001:687 JLINK_IsHalted()  returns FALSE (0001ms, 0763ms total)
T291C 001:689 JLINK_IsHalted()  returns FALSE (0001ms, 0763ms total)
T291C 001:691 JLINK_IsHalted()  returns FALSE (0001ms, 0763ms total)
T291C 001:693 JLINK_IsHalted()  returns FALSE (0001ms, 0763ms total)
T291C 001:696 JLINK_IsHalted()  returns FALSE (0001ms, 0763ms total)
T291C 001:698 JLINK_IsHalted()  returns FALSE (0001ms, 0763ms total)
T291C 001:700 JLINK_IsHalted()  returns FALSE (0001ms, 0763ms total)
T291C 001:702 JLINK_IsHalted()  returns FALSE (0001ms, 0763ms total)
T291C 001:704 JLINK_IsHalted()  returns FALSE (0001ms, 0763ms total)
T291C 001:706 JLINK_IsHalted()  returns FALSE (0001ms, 0763ms total)
T291C 001:708 JLINK_IsHalted()  returns FALSE (0001ms, 0763ms total)
T291C 001:710 JLINK_IsHalted()  returns FALSE (0001ms, 0763ms total)
T291C 001:712 JLINK_IsHalted()  returns FALSE (0002ms, 0764ms total)
T291C 001:717 JLINK_IsHalted()  returns FALSE (0001ms, 0763ms total)
T291C 001:719 JLINK_IsHalted()  returns FALSE (0001ms, 0763ms total)
T291C 001:721 JLINK_IsHalted()  returns FALSE (0001ms, 0763ms total)
T291C 001:723 JLINK_IsHalted()  returns FALSE (0001ms, 0763ms total)
T291C 001:725 JLINK_IsHalted()  returns FALSE (0002ms, 0764ms total)
T291C 001:759 JLINK_IsHalted()  returns FALSE (0001ms, 0763ms total)
T291C 001:761 JLINK_IsHalted()  returns FALSE (0001ms, 0763ms total)
T291C 001:763 JLINK_IsHalted()  returns FALSE (0001ms, 0763ms total)
T291C 001:765 JLINK_IsHalted()  returns FALSE (0001ms, 0763ms total)
T291C 001:767 JLINK_IsHalted()  returns FALSE (0001ms, 0763ms total)
T291C 001:769 JLINK_IsHalted()  returns FALSE (0001ms, 0763ms total)
T291C 001:771 JLINK_IsHalted()  returns FALSE (0002ms, 0764ms total)
T291C 001:780 JLINK_IsHalted()  returns FALSE (0001ms, 0763ms total)
T291C 001:782 JLINK_IsHalted()  returns FALSE (0001ms, 0763ms total)
T291C 001:784 JLINK_IsHalted()  returns FALSE (0001ms, 0763ms total)
T291C 001:786 JLINK_IsHalted()  returns FALSE (0001ms, 0763ms total)
T291C 001:788 JLINK_IsHalted()  returns FALSE (0001ms, 0763ms total)
T291C 001:793 JLINK_IsHalted()  returns FALSE (0001ms, 0763ms total)
T291C 001:795 JLINK_IsHalted()  returns FALSE (0001ms, 0763ms total)
T291C 001:797 JLINK_IsHalted()  returns FALSE (0001ms, 0763ms total)
T291C 001:799 JLINK_IsHalted()  returns FALSE (0001ms, 0763ms total)
T291C 001:801 JLINK_IsHalted()  returns FALSE (0001ms, 0763ms total)
T291C 001:804 JLINK_IsHalted()  returns FALSE (0001ms, 0763ms total)
T291C 001:806 JLINK_IsHalted()  returns FALSE (0001ms, 0763ms total)
T291C 001:808 JLINK_IsHalted()  returns FALSE (0001ms, 0763ms total)
T291C 001:810 JLINK_IsHalted()  returns FALSE (0001ms, 0763ms total)
T291C 001:812 JLINK_IsHalted()  returns FALSE (0001ms, 0763ms total)
T291C 001:814 JLINK_IsHalted()  returns FALSE (0001ms, 0763ms total)
T291C 001:816 JLINK_IsHalted()  returns FALSE (0001ms, 0763ms total)
T291C 001:822 JLINK_IsHalted()  returns FALSE (0001ms, 0763ms total)
T291C 001:824 JLINK_IsHalted()  returns FALSE (0001ms, 0763ms total)
T291C 001:826 JLINK_IsHalted()  returns FALSE (0001ms, 0763ms total)
T291C 001:828 JLINK_IsHalted()  returns FALSE (0001ms, 0763ms total)
T291C 001:830 JLINK_IsHalted()  returns FALSE (0001ms, 0763ms total)
T291C 001:832 JLINK_IsHalted()  returns FALSE (0001ms, 0763ms total)
T291C 001:834 JLINK_IsHalted()  returns FALSE (0001ms, 0763ms total)
T291C 001:837 JLINK_IsHalted() -- CPU_ReadMem(2 bytes @ 0x20000000)  returns TRUE (0004ms, 0766ms total)
T291C 001:841 JLINK_ReadReg(R15 (PC))  returns 0x20000000 (0000ms, 0762ms total)
T291C 001:841 JLINK_ClrBPEx(BPHandle = 0x00000005)  returns 0x00 (0000ms, 0762ms total)
T291C 001:841 JLINK_ReadReg(R0)  returns 0x00000000 (0000ms, 0762ms total)
T291C 001:844 JLINK_WriteReg(R0, 0x00000001)  returns 0x00 (0000ms, 0762ms total)
T291C 001:844 JLINK_WriteReg(R1, 0x00004000)  returns 0x00 (0000ms, 0762ms total)
T291C 001:844 JLINK_WriteReg(R2, 0x000000FF)  returns 0x00 (0000ms, 0762ms total)
T291C 001:844 JLINK_WriteReg(R3, 0x00000000)  returns 0x00 (0000ms, 0762ms total)
T291C 001:844 JLINK_WriteReg(R4, 0x00000000)  returns 0x00 (0000ms, 0762ms total)
T291C 001:844 JLINK_WriteReg(R5, 0x00000000)  returns 0x00 (0000ms, 0762ms total)
T291C 001:844 JLINK_WriteReg(R6, 0x00000000)  returns 0x00 (0000ms, 0762ms total)
T291C 001:844 JLINK_WriteReg(R7, 0x00000000)  returns 0x00 (0000ms, 0762ms total)
T291C 001:844 JLINK_WriteReg(R8, 0x00000000)  returns 0x00 (0000ms, 0762ms total)
T291C 001:844 JLINK_WriteReg(R9, 0x20000194)  returns 0x00 (0000ms, 0762ms total)
T291C 001:844 JLINK_WriteReg(R10, 0x00000000)  returns 0x00 (0001ms, 0763ms total)
T291C 001:845 JLINK_WriteReg(R11, 0x00000000)  returns 0x00 (0000ms, 0763ms total)
T291C 001:845 JLINK_WriteReg(R12, 0x00000000)  returns 0x00 (0000ms, 0763ms total)
T291C 001:845 JLINK_WriteReg(R13 (SP), 0x20001000)  returns 0x00 (0000ms, 0763ms total)
T291C 001:845 JLINK_WriteReg(R14, 0x20000001)  returns 0x00 (0000ms, 0763ms total)
T291C 001:845 JLINK_WriteReg(R15 (PC), 0x2000008C)  returns 0x00 (0000ms, 0763ms total)
T291C 001:845 JLINK_WriteReg(XPSR, 0x01000000)  returns 0x00 (0000ms, 0763ms total)
T291C 001:845 JLINK_WriteReg(MSP, 0x20001000)  returns 0x00 (0000ms, 0763ms total)
T291C 001:845 JLINK_WriteReg(PSP, 0x20001000)  returns 0x00 (0000ms, 0763ms total)
T291C 001:845 JLINK_WriteReg(CFBP, 0x00000000)  returns 0x00 (0000ms, 0763ms total)
T291C 001:845 JLINK_SetBPEx(Addr = 0x20000000, Type = 0xFFFFFFF2)  returns 0x00000006 (0000ms, 0763ms total)
T291C 001:845 JLINK_Go() (0002ms, 0765ms total)
T291C 001:847 JLINK_IsHalted() -- CPU_ReadMem(2 bytes @ 0x20000000)  returns TRUE (0004ms, 0769ms total)
T291C 001:851 JLINK_ReadReg(R15 (PC))  returns 0x20000000 (0000ms, 0765ms total)
T291C 001:851 JLINK_ClrBPEx(BPHandle = 0x00000006)  returns 0x00 (0000ms, 0765ms total)
T291C 001:851 JLINK_ReadReg(R0)  returns 0x00000000 (0000ms, 0765ms total)
T291C 001:911 JLINK_WriteMem(0x20000000, 0x0198 Bytes, ...) - Data: 00 BE 0A E0 0D 78 2D 06 68 40 08 24 40 00 00 D3 ... -- CPU_WriteMem(408 bytes @ 0x20000000)  returns 0x198 (0003ms, 0768ms total)
T291C 001:914 JLINK_WriteReg(R0, 0x08000000)  returns 0x00 (0000ms, 0768ms total)
T291C 001:914 JLINK_WriteReg(R1, 0x00B71B00)  returns 0x00 (0000ms, 0768ms total)
T291C 001:914 JLINK_WriteReg(R2, 0x00000002)  returns 0x00 (0000ms, 0768ms total)
T291C 001:914 JLINK_WriteReg(R3, 0x00000000)  returns 0x00 (0000ms, 0768ms total)
T291C 001:914 JLINK_WriteReg(R4, 0x00000000)  returns 0x00 (0000ms, 0768ms total)
T291C 001:914 JLINK_WriteReg(R5, 0x00000000)  returns 0x00 (0000ms, 0768ms total)
T291C 001:914 JLINK_WriteReg(R6, 0x00000000)  returns 0x00 (0000ms, 0768ms total)
T291C 001:914 JLINK_WriteReg(R7, 0x00000000)  returns 0x00 (0000ms, 0768ms total)
T291C 001:914 JLINK_WriteReg(R8, 0x00000000)  returns 0x00 (0000ms, 0768ms total)
T291C 001:914 JLINK_WriteReg(R9, 0x20000194)  returns 0x00 (0000ms, 0768ms total)
T291C 001:914 JLINK_WriteReg(R10, 0x00000000)  returns 0x00 (0000ms, 0768ms total)
T291C 001:914 JLINK_WriteReg(R11, 0x00000000)  returns 0x00 (0000ms, 0768ms total)
T291C 001:914 JLINK_WriteReg(R12, 0x00000000)  returns 0x00 (0000ms, 0768ms total)
T291C 001:914 JLINK_WriteReg(R13 (SP), 0x20001000)  returns 0x00 (0000ms, 0768ms total)
T291C 001:914 JLINK_WriteReg(R14, 0x20000001)  returns 0x00 (0000ms, 0768ms total)
T291C 001:914 JLINK_WriteReg(R15 (PC), 0x2000005E)  returns 0x00 (0000ms, 0768ms total)
T291C 001:914 JLINK_WriteReg(XPSR, 0x01000000)  returns 0x00 (0000ms, 0768ms total)
T291C 001:914 JLINK_WriteReg(MSP, 0x20001000)  returns 0x00 (0000ms, 0768ms total)
T291C 001:914 JLINK_WriteReg(PSP, 0x20001000)  returns 0x00 (0000ms, 0768ms total)
T291C 001:914 JLINK_WriteReg(CFBP, 0x00000000)  returns 0x00 (0000ms, 0768ms total)
T291C 001:914 JLINK_SetBPEx(Addr = 0x20000000, Type = 0xFFFFFFF2) -- CPU_ReadMem(4 bytes @ 0x20000000) -- CPU_WriteMem(4 bytes @ 0x20000000) -- CPU_ReadMem(4 bytes @ 0x20000000) -- CPU_WriteMem(4 bytes @ 0x20000000) -- CPU_ReadMem(2 bytes @ 0x20000000)  returns 0x00000007 (0005ms, 0773ms total)
T291C 001:919 JLINK_Go() -- CPU_WriteMem(2 bytes @ 0x20000000) (0003ms, 0776ms total)
T291C 001:922 JLINK_IsHalted() -- CPU_ReadMem(2 bytes @ 0x20000000)  returns TRUE (0004ms, 0780ms total)
T291C 001:926 JLINK_ReadReg(R15 (PC))  returns 0x20000000 (0000ms, 0776ms total)
T291C 001:926 JLINK_ClrBPEx(BPHandle = 0x00000007)  returns 0x00 (0000ms, 0776ms total)
T291C 001:926 JLINK_ReadReg(R0)  returns 0x00000000 (0000ms, 0776ms total)
T291C 001:927 JLINK_WriteMem(0x20000198, 0x0400 Bytes, ...) - Data: F8 08 00 20 55 02 00 08 D1 26 00 08 23 1B 00 08 ... -- CPU_WriteMem(1024 bytes @ 0x20000198)  returns 0x400 (0007ms, 0783ms total)
T291C 001:934 JLINK_WriteReg(R0, 0x08000000)  returns 0x00 (0000ms, 0783ms total)
T291C 001:934 JLINK_WriteReg(R1, 0x00000400)  returns 0x00 (0000ms, 0783ms total)
T291C 001:934 JLINK_WriteReg(R2, 0x20000198)  returns 0x00 (0000ms, 0783ms total)
T291C 001:934 JLINK_WriteReg(R3, 0x00000000)  returns 0x00 (0000ms, 0783ms total)
T291C 001:934 JLINK_WriteReg(R4, 0x00000000)  returns 0x00 (0000ms, 0783ms total)
T291C 001:934 JLINK_WriteReg(R5, 0x00000000)  returns 0x00 (0000ms, 0783ms total)
T291C 001:934 JLINK_WriteReg(R6, 0x00000000)  returns 0x00 (0000ms, 0783ms total)
T291C 001:934 JLINK_WriteReg(R7, 0x00000000)  returns 0x00 (0000ms, 0783ms total)
T291C 001:934 JLINK_WriteReg(R8, 0x00000000)  returns 0x00 (0000ms, 0783ms total)
T291C 001:934 JLINK_WriteReg(R9, 0x20000194)  returns 0x00 (0000ms, 0783ms total)
T291C 001:934 JLINK_WriteReg(R10, 0x00000000)  returns 0x00 (0000ms, 0783ms total)
T291C 001:934 JLINK_WriteReg(R11, 0x00000000)  returns 0x00 (0000ms, 0783ms total)
T291C 001:934 JLINK_WriteReg(R12, 0x00000000)  returns 0x00 (0000ms, 0783ms total)
T291C 001:934 JLINK_WriteReg(R13 (SP), 0x20001000)  returns 0x00 (0000ms, 0783ms total)
T291C 001:934 JLINK_WriteReg(R14, 0x20000001)  returns 0x00 (0000ms, 0783ms total)
T291C 001:934 JLINK_WriteReg(R15 (PC), 0x20000120)  returns 0x00 (0000ms, 0783ms total)
T291C 001:934 JLINK_WriteReg(XPSR, 0x01000000)  returns 0x00 (0000ms, 0783ms total)
T291C 001:934 JLINK_WriteReg(MSP, 0x20001000)  returns 0x00 (0000ms, 0783ms total)
T291C 001:934 JLINK_WriteReg(PSP, 0x20001000)  returns 0x00 (0000ms, 0783ms total)
T291C 001:934 JLINK_WriteReg(CFBP, 0x00000000)  returns 0x00 (0000ms, 0783ms total)
T291C 001:934 JLINK_SetBPEx(Addr = 0x20000000, Type = 0xFFFFFFF2)  returns 0x00000008 (0000ms, 0783ms total)
T291C 001:934 JLINK_Go() (0003ms, 0786ms total)
T291C 001:937 JLINK_IsHalted()  returns FALSE (0001ms, 0787ms total)
T291C 001:985 JLINK_IsHalted() -- CPU_ReadMem(2 bytes @ 0x20000000)  returns TRUE (0004ms, 0790ms total)
T291C 001:989 JLINK_ReadReg(R15 (PC))  returns 0x20000000 (0000ms, 0786ms total)
T291C 001:989 JLINK_ClrBPEx(BPHandle = 0x00000008)  returns 0x00 (0000ms, 0786ms total)
T291C 001:989 JLINK_ReadReg(R0)  returns 0x00000000 (0000ms, 0786ms total)
T291C 001:990 JLINK_WriteMem(0x20000198, 0x0400 Bytes, ...) - Data: 25 F0 20 05 1D E0 D8 F8 18 00 00 EB 80 00 06 EB ... -- CPU_WriteMem(1024 bytes @ 0x20000198)  returns 0x400 (0007ms, 0793ms total)
T291C 001:997 JLINK_WriteReg(R0, 0x08000400)  returns 0x00 (0000ms, 0793ms total)
T291C 001:997 JLINK_WriteReg(R1, 0x00000400)  returns 0x00 (0000ms, 0793ms total)
T291C 001:997 JLINK_WriteReg(R2, 0x20000198)  returns 0x00 (0000ms, 0793ms total)
T291C 001:997 JLINK_WriteReg(R3, 0x00000000)  returns 0x00 (0000ms, 0793ms total)
T291C 001:997 JLINK_WriteReg(R4, 0x00000000)  returns 0x00 (0000ms, 0793ms total)
T291C 001:997 JLINK_WriteReg(R5, 0x00000000)  returns 0x00 (0000ms, 0793ms total)
T291C 001:997 JLINK_WriteReg(R6, 0x00000000)  returns 0x00 (0000ms, 0793ms total)
T291C 001:997 JLINK_WriteReg(R7, 0x00000000)  returns 0x00 (0000ms, 0793ms total)
T291C 001:997 JLINK_WriteReg(R8, 0x00000000)  returns 0x00 (0000ms, 0793ms total)
T291C 001:997 JLINK_WriteReg(R9, 0x20000194)  returns 0x00 (0000ms, 0793ms total)
T291C 001:997 JLINK_WriteReg(R10, 0x00000000)  returns 0x00 (0000ms, 0793ms total)
T291C 001:997 JLINK_WriteReg(R11, 0x00000000)  returns 0x00 (0000ms, 0793ms total)
T291C 001:997 JLINK_WriteReg(R12, 0x00000000)  returns 0x00 (0000ms, 0793ms total)
T291C 001:997 JLINK_WriteReg(R13 (SP), 0x20001000)  returns 0x00 (0000ms, 0793ms total)
T291C 001:997 JLINK_WriteReg(R14, 0x20000001)  returns 0x00 (0000ms, 0793ms total)
T291C 001:997 JLINK_WriteReg(R15 (PC), 0x20000120)  returns 0x00 (0000ms, 0793ms total)
T291C 001:997 JLINK_WriteReg(XPSR, 0x01000000)  returns 0x00 (0000ms, 0793ms total)
T291C 001:997 JLINK_WriteReg(MSP, 0x20001000)  returns 0x00 (0000ms, 0793ms total)
T291C 001:997 JLINK_WriteReg(PSP, 0x20001000)  returns 0x00 (0000ms, 0793ms total)
T291C 001:997 JLINK_WriteReg(CFBP, 0x00000000)  returns 0x00 (0000ms, 0793ms total)
T291C 001:997 JLINK_SetBPEx(Addr = 0x20000000, Type = 0xFFFFFFF2)  returns 0x00000009 (0000ms, 0793ms total)
T291C 001:997 JLINK_Go() (0003ms, 0796ms total)
T291C 002:000 JLINK_IsHalted()  returns FALSE (0001ms, 0797ms total)
T291C 002:003 JLINK_IsHalted()  returns FALSE (0001ms, 0797ms total)
T291C 002:005 JLINK_IsHalted() -- CPU_ReadMem(2 bytes @ 0x20000000)  returns TRUE (0004ms, 0800ms total)
T291C 002:009 JLINK_ReadReg(R15 (PC))  returns 0x20000000 (0000ms, 0796ms total)
T291C 002:009 JLINK_ClrBPEx(BPHandle = 0x00000009)  returns 0x00 (0000ms, 0796ms total)
T291C 002:009 JLINK_ReadReg(R0)  returns 0x00000000 (0000ms, 0796ms total)
T291C 002:010 JLINK_WriteMem(0x20000198, 0x0400 Bytes, ...) - Data: 25 EA 0C 05 D1 F8 10 C0 0C FA 04 FC 4C EA 05 0C ... -- CPU_WriteMem(1024 bytes @ 0x20000198)  returns 0x400 (0006ms, 0802ms total)
T291C 002:016 JLINK_WriteReg(R0, 0x08000800)  returns 0x00 (0000ms, 0802ms total)
T291C 002:016 JLINK_WriteReg(R1, 0x00000400)  returns 0x00 (0000ms, 0802ms total)
T291C 002:016 JLINK_WriteReg(R2, 0x20000198)  returns 0x00 (0000ms, 0802ms total)
T291C 002:016 JLINK_WriteReg(R3, 0x00000000)  returns 0x00 (0000ms, 0802ms total)
T291C 002:016 JLINK_WriteReg(R4, 0x00000000)  returns 0x00 (0000ms, 0802ms total)
T291C 002:016 JLINK_WriteReg(R5, 0x00000000)  returns 0x00 (0000ms, 0802ms total)
T291C 002:016 JLINK_WriteReg(R6, 0x00000000)  returns 0x00 (0000ms, 0802ms total)
T291C 002:016 JLINK_WriteReg(R7, 0x00000000)  returns 0x00 (0000ms, 0802ms total)
T291C 002:016 JLINK_WriteReg(R8, 0x00000000)  returns 0x00 (0000ms, 0802ms total)
T291C 002:016 JLINK_WriteReg(R9, 0x20000194)  returns 0x00 (0000ms, 0802ms total)
T291C 002:016 JLINK_WriteReg(R10, 0x00000000)  returns 0x00 (0000ms, 0802ms total)
T291C 002:016 JLINK_WriteReg(R11, 0x00000000)  returns 0x00 (0000ms, 0802ms total)
T291C 002:016 JLINK_WriteReg(R12, 0x00000000)  returns 0x00 (0000ms, 0802ms total)
T291C 002:016 JLINK_WriteReg(R13 (SP), 0x20001000)  returns 0x00 (0000ms, 0802ms total)
T291C 002:016 JLINK_WriteReg(R14, 0x20000001)  returns 0x00 (0000ms, 0802ms total)
T291C 002:016 JLINK_WriteReg(R15 (PC), 0x20000120)  returns 0x00 (0000ms, 0802ms total)
T291C 002:016 JLINK_WriteReg(XPSR, 0x01000000)  returns 0x00 (0000ms, 0802ms total)
T291C 002:016 JLINK_WriteReg(MSP, 0x20001000)  returns 0x00 (0001ms, 0803ms total)
T291C 002:017 JLINK_WriteReg(PSP, 0x20001000)  returns 0x00 (0000ms, 0803ms total)
T291C 002:017 JLINK_WriteReg(CFBP, 0x00000000)  returns 0x00 (0000ms, 0803ms total)
T291C 002:017 JLINK_SetBPEx(Addr = 0x20000000, Type = 0xFFFFFFF2)  returns 0x0000000A (0000ms, 0803ms total)
T291C 002:017 JLINK_Go() (0002ms, 0805ms total)
T291C 002:019 JLINK_IsHalted()  returns FALSE (0001ms, 0806ms total)
T291C 002:023 JLINK_IsHalted()  returns FALSE (0001ms, 0806ms total)
T291C 002:025 JLINK_IsHalted() -- CPU_ReadMem(2 bytes @ 0x20000000)  returns TRUE (0004ms, 0809ms total)
T291C 002:029 JLINK_ReadReg(R15 (PC))  returns 0x20000000 (0001ms, 0806ms total)
T291C 002:030 JLINK_ClrBPEx(BPHandle = 0x0000000A)  returns 0x00 (0000ms, 0806ms total)
T291C 002:030 JLINK_ReadReg(R0)  returns 0x00000000 (0000ms, 0806ms total)
T291C 002:031 JLINK_WriteMem(0x20000198, 0x0400 Bytes, ...) - Data: 00 90 69 46 07 48 FF F7 DB FD 07 B0 30 BD 00 00 ... -- CPU_WriteMem(1024 bytes @ 0x20000198)  returns 0x400 (0006ms, 0812ms total)
T291C 002:037 JLINK_WriteReg(R0, 0x08000C00)  returns 0x00 (0000ms, 0812ms total)
T291C 002:037 JLINK_WriteReg(R1, 0x00000400)  returns 0x00 (0000ms, 0812ms total)
T291C 002:037 JLINK_WriteReg(R2, 0x20000198)  returns 0x00 (0000ms, 0812ms total)
T291C 002:037 JLINK_WriteReg(R3, 0x00000000)  returns 0x00 (0000ms, 0812ms total)
T291C 002:037 JLINK_WriteReg(R4, 0x00000000)  returns 0x00 (0000ms, 0812ms total)
T291C 002:037 JLINK_WriteReg(R5, 0x00000000)  returns 0x00 (0000ms, 0812ms total)
T291C 002:037 JLINK_WriteReg(R6, 0x00000000)  returns 0x00 (0000ms, 0812ms total)
T291C 002:037 JLINK_WriteReg(R7, 0x00000000)  returns 0x00 (0000ms, 0812ms total)
T291C 002:037 JLINK_WriteReg(R8, 0x00000000)  returns 0x00 (0000ms, 0812ms total)
T291C 002:037 JLINK_WriteReg(R9, 0x20000194)  returns 0x00 (0000ms, 0812ms total)
T291C 002:037 JLINK_WriteReg(R10, 0x00000000)  returns 0x00 (0000ms, 0812ms total)
T291C 002:037 JLINK_WriteReg(R11, 0x00000000)  returns 0x00 (0000ms, 0812ms total)
T291C 002:037 JLINK_WriteReg(R12, 0x00000000)  returns 0x00 (0000ms, 0812ms total)
T291C 002:037 JLINK_WriteReg(R13 (SP), 0x20001000)  returns 0x00 (0000ms, 0812ms total)
T291C 002:037 JLINK_WriteReg(R14, 0x20000001)  returns 0x00 (0000ms, 0812ms total)
T291C 002:037 JLINK_WriteReg(R15 (PC), 0x20000120)  returns 0x00 (0000ms, 0812ms total)
T291C 002:037 JLINK_WriteReg(XPSR, 0x01000000)  returns 0x00 (0000ms, 0812ms total)
T291C 002:037 JLINK_WriteReg(MSP, 0x20001000)  returns 0x00 (0000ms, 0812ms total)
T291C 002:037 JLINK_WriteReg(PSP, 0x20001000)  returns 0x00 (0000ms, 0812ms total)
T291C 002:037 JLINK_WriteReg(CFBP, 0x00000000)  returns 0x00 (0001ms, 0813ms total)
T291C 002:038 JLINK_SetBPEx(Addr = 0x20000000, Type = 0xFFFFFFF2)  returns 0x0000000B (0000ms, 0813ms total)
T291C 002:038 JLINK_Go() (0002ms, 0815ms total)
T291C 002:040 JLINK_IsHalted()  returns FALSE (0001ms, 0816ms total)
T291C 002:046 JLINK_IsHalted() -- CPU_ReadMem(2 bytes @ 0x20000000)  returns TRUE (0004ms, 0819ms total)
T291C 002:050 JLINK_ReadReg(R15 (PC))  returns 0x20000000 (0000ms, 0815ms total)
T291C 002:050 JLINK_ClrBPEx(BPHandle = 0x0000000B)  returns 0x00 (0000ms, 0815ms total)
T291C 002:050 JLINK_ReadReg(R0)  returns 0x00000000 (0000ms, 0815ms total)
T291C 002:050 JLINK_WriteMem(0x20000198, 0x0400 Bytes, ...) - Data: F8 10 08 60 30 68 21 8D C1 F3 0B 01 08 43 30 60 ... -- CPU_WriteMem(1024 bytes @ 0x20000198)  returns 0x400 (0007ms, 0822ms total)
T291C 002:057 JLINK_WriteReg(R0, 0x08001000)  returns 0x00 (0000ms, 0822ms total)
T291C 002:057 JLINK_WriteReg(R1, 0x00000400)  returns 0x00 (0000ms, 0822ms total)
T291C 002:057 JLINK_WriteReg(R2, 0x20000198)  returns 0x00 (0000ms, 0822ms total)
T291C 002:057 JLINK_WriteReg(R3, 0x00000000)  returns 0x00 (0000ms, 0822ms total)
T291C 002:057 JLINK_WriteReg(R4, 0x00000000)  returns 0x00 (0000ms, 0822ms total)
T291C 002:057 JLINK_WriteReg(R5, 0x00000000)  returns 0x00 (0000ms, 0822ms total)
T291C 002:057 JLINK_WriteReg(R6, 0x00000000)  returns 0x00 (0000ms, 0822ms total)
T291C 002:057 JLINK_WriteReg(R7, 0x00000000)  returns 0x00 (0000ms, 0822ms total)
T291C 002:057 JLINK_WriteReg(R8, 0x00000000)  returns 0x00 (0000ms, 0822ms total)
T291C 002:057 JLINK_WriteReg(R9, 0x20000194)  returns 0x00 (0000ms, 0822ms total)
T291C 002:057 JLINK_WriteReg(R10, 0x00000000)  returns 0x00 (0000ms, 0822ms total)
T291C 002:057 JLINK_WriteReg(R11, 0x00000000)  returns 0x00 (0000ms, 0822ms total)
T291C 002:057 JLINK_WriteReg(R12, 0x00000000)  returns 0x00 (0000ms, 0822ms total)
T291C 002:057 JLINK_WriteReg(R13 (SP), 0x20001000)  returns 0x00 (0000ms, 0822ms total)
T291C 002:057 JLINK_WriteReg(R14, 0x20000001)  returns 0x00 (0000ms, 0822ms total)
T291C 002:057 JLINK_WriteReg(R15 (PC), 0x20000120)  returns 0x00 (0000ms, 0822ms total)
T291C 002:057 JLINK_WriteReg(XPSR, 0x01000000)  returns 0x00 (0000ms, 0822ms total)
T291C 002:057 JLINK_WriteReg(MSP, 0x20001000)  returns 0x00 (0000ms, 0822ms total)
T291C 002:057 JLINK_WriteReg(PSP, 0x20001000)  returns 0x00 (0000ms, 0822ms total)
T291C 002:057 JLINK_WriteReg(CFBP, 0x00000000)  returns 0x00 (0000ms, 0822ms total)
T291C 002:057 JLINK_SetBPEx(Addr = 0x20000000, Type = 0xFFFFFFF2)  returns 0x0000000C (0000ms, 0822ms total)
T291C 002:057 JLINK_Go() (0003ms, 0825ms total)
T291C 002:060 JLINK_IsHalted()  returns FALSE (0001ms, 0826ms total)
T291C 002:093 JLINK_IsHalted() -- CPU_ReadMem(2 bytes @ 0x20000000)  returns TRUE (0004ms, 0829ms total)
T291C 002:097 JLINK_ReadReg(R15 (PC))  returns 0x20000000 (0000ms, 0825ms total)
T291C 002:097 JLINK_ClrBPEx(BPHandle = 0x0000000C)  returns 0x00 (0000ms, 0825ms total)
T291C 002:097 JLINK_ReadReg(R0)  returns 0x00000000 (0000ms, 0825ms total)
T291C 002:097 JLINK_WriteMem(0x20000198, 0x0400 Bytes, ...) - Data: E0 D8 28 68 80 03 F7 D4 20 78 DF F8 64 92 80 07 ... -- CPU_WriteMem(1024 bytes @ 0x20000198)  returns 0x400 (0007ms, 0832ms total)
T291C 002:104 JLINK_WriteReg(R0, 0x08001400)  returns 0x00 (0000ms, 0832ms total)
T291C 002:104 JLINK_WriteReg(R1, 0x00000400)  returns 0x00 (0000ms, 0832ms total)
T291C 002:104 JLINK_WriteReg(R2, 0x20000198)  returns 0x00 (0000ms, 0832ms total)
T291C 002:104 JLINK_WriteReg(R3, 0x00000000)  returns 0x00 (0000ms, 0832ms total)
T291C 002:104 JLINK_WriteReg(R4, 0x00000000)  returns 0x00 (0000ms, 0832ms total)
T291C 002:104 JLINK_WriteReg(R5, 0x00000000)  returns 0x00 (0000ms, 0832ms total)
T291C 002:104 JLINK_WriteReg(R6, 0x00000000)  returns 0x00 (0000ms, 0832ms total)
T291C 002:104 JLINK_WriteReg(R7, 0x00000000)  returns 0x00 (0000ms, 0832ms total)
T291C 002:104 JLINK_WriteReg(R8, 0x00000000)  returns 0x00 (0000ms, 0832ms total)
T291C 002:104 JLINK_WriteReg(R9, 0x20000194)  returns 0x00 (0000ms, 0832ms total)
T291C 002:104 JLINK_WriteReg(R10, 0x00000000)  returns 0x00 (0000ms, 0832ms total)
T291C 002:104 JLINK_WriteReg(R11, 0x00000000)  returns 0x00 (0000ms, 0832ms total)
T291C 002:104 JLINK_WriteReg(R12, 0x00000000)  returns 0x00 (0000ms, 0832ms total)
T291C 002:104 JLINK_WriteReg(R13 (SP), 0x20001000)  returns 0x00 (0000ms, 0832ms total)
T291C 002:104 JLINK_WriteReg(R14, 0x20000001)  returns 0x00 (0000ms, 0832ms total)
T291C 002:104 JLINK_WriteReg(R15 (PC), 0x20000120)  returns 0x00 (0000ms, 0832ms total)
T291C 002:104 JLINK_WriteReg(XPSR, 0x01000000)  returns 0x00 (0000ms, 0832ms total)
T291C 002:104 JLINK_WriteReg(MSP, 0x20001000)  returns 0x00 (0000ms, 0832ms total)
T291C 002:104 JLINK_WriteReg(PSP, 0x20001000)  returns 0x00 (0000ms, 0832ms total)
T291C 002:104 JLINK_WriteReg(CFBP, 0x00000000)  returns 0x00 (0000ms, 0832ms total)
T291C 002:104 JLINK_SetBPEx(Addr = 0x20000000, Type = 0xFFFFFFF2)  returns 0x0000000D (0000ms, 0832ms total)
T291C 002:104 JLINK_Go() (0003ms, 0835ms total)
T291C 002:107 JLINK_IsHalted()  returns FALSE (0001ms, 0836ms total)
T291C 002:112 JLINK_IsHalted() -- CPU_ReadMem(2 bytes @ 0x20000000)  returns TRUE (0007ms, 0842ms total)
T291C 002:119 JLINK_ReadReg(R15 (PC))  returns 0x20000000 (0000ms, 0835ms total)
T291C 002:119 JLINK_ClrBPEx(BPHandle = 0x0000000D)  returns 0x00 (0000ms, 0835ms total)
T291C 002:119 JLINK_ReadReg(R0)  returns 0x00000000 (0000ms, 0835ms total)
T291C 002:120 JLINK_WriteMem(0x20000198, 0x0400 Bytes, ...) - Data: 04 46 90 F8 2C 00 0D 46 02 28 0C D0 02 20 84 F8 ... -- CPU_WriteMem(1024 bytes @ 0x20000198)  returns 0x400 (0006ms, 0841ms total)
T291C 002:126 JLINK_WriteReg(R0, 0x08001800)  returns 0x00 (0000ms, 0841ms total)
T291C 002:126 JLINK_WriteReg(R1, 0x00000400)  returns 0x00 (0000ms, 0841ms total)
T291C 002:126 JLINK_WriteReg(R2, 0x20000198)  returns 0x00 (0000ms, 0841ms total)
